# 飞功电子秤 Modbus RTU 通信协议

## 基础参数

| 参数 | 值 |
|------|-----|
| 波特率 | 9600 bps |
| 数据位 | 8 |
| 校验 | None (无校验) |
| 停止位 | 1 |
| 从站地址 | **0x01** |

## 功能码

| 功能码 | 名称 | 用途 |
|--------|------|------|
| **0x03** | Read Holding Registers | 读保持寄存器 |
| **0x06** | Write Single Register | 写单个寄存器 |
| **0x10** | Write Multiple Registers | 写多个寄存器 |

---

## 寄存器映射表

> 所有寄存器均映射至 Holding Register 地址空间

| 地址(Hex) | 变量名 | 读写权限 | 数据类型 | 说明 |
|-----------|--------|----------|----------|------|
| **0x0000** | Net_Weight_H | R(只读) | Int16 | 净重高16位（单位: g） |
| **0x0001** | Net_Weight_L | R(只读) | Int16 | 净重低16位 |
| **0x0002** | Status_Word | R(只读) | UInt16 | 设备状态字 |
| **0x0003** | ADC_Raw_H | R(只读) | Int16 | 传感器原始 ADC 采样值高16位 |
| **0x0004** | ADC_Raw_L | R(只读) | UInt16 | 传感器原始 ADC 采样值低16位 |
| **0x0005** | cal_a_H | R(只读) | Int16 | 非线性系数 a 高16位（放大10^9倍） |
| **0x0006** | cal_a_L | R(只读) | UInt16 | 非线性系数 a 低16位 |
| **0x0007** | cal_K_H | R(只读) | Int16 | 线性校正系数 K 高16位（放大10^3倍） |
| **0x0008** | cal_K_L | R(只读) | UInt16 | 线性校正系数 K 低16位 |
| **0x0009** | offset_H | R(只读) | Int16 | 零点Offset高16位（HX711原始ADC级） |
| **0x000A** | offset_L | R(只读) | UInt16 | 零点Offset低16位 |
| **0x0010** | System_Cmd | RW(读写) | UInt16 | 命令寄存器 |
| **0x0022** | Full_Scale_H | RW(读写) | Int16 | 最大量程高16位（单位: g） |
| **0x0023** | Full_Scale_L | RW(读写) | UInt16 | 最大量程低16位 |
| **0x0030** | Conn_Check | R(只读) | UInt16 | 连接设备校验（固定返回 0xABCD） |
| **0x0031** | SN_Start | RW(读写) | UInt16 | 序列号起始地址（长度8个寄存器/16字节） |

---

## 组合数据类型说明

### Net_Weight — 净重（int32, 大端序）
- 地址: `0x0000~0x0001`，共 2 个寄存器
- 单位: **g**
- 字节序: **大端序 BE**
- 示例: 寄存器 `[0x0000=0x001E, 0x0001=0x8480]` → 净重 = **200000 g = 200 kg**

### ADC_Raw — ADC原始值（uint32, 大端序）
- 地址: `0x0003~0x0004`，共 2 个寄存器
- 字节序: **大端序 BE**

### Cal_a — 非线性系数 a（int32, 放大 10^9 倍）
- 地址: `0x0005~0x0006`
- 实际值 = 寄存器值 / 10^9

### Cal_K — 线性校正系数 K（int32, 放大 10^3 倍）
- 地址: `0x0007~0x0008`
- 实际值 = 寄存器值 / 1000

### Offset — 零点偏移（int32, HX711原始ADC级）
- 地址: `0x0009~0x000A`

### Max_Capacity — 最大量程（int32, 大端序）
- 地址: `0x0022~0x0023`
- 单位: **g**
- 可通过 FC16 写入修改
- 常用值:
  - 50 kg → **50000 g** (`0x0000C350`)
  - 200 kg → **200000 g** (`0x00030D40`)

### SN_Start — 序列号（8个寄存器 = 16字节）
- 起始地址: `0x0031`
- 长度: 8 个寄存器（16 字节 ASCII）

---

## System_Cmd 命令定义

| 写入值 | 功能 | 对应 FC06 指令 |
|--------|------|---------------|
| **0x0001** | 去皮 (Tare) | `01 06 00 10 00 01 49 CF` |
| **0x0002** | 半量程标定 (Half-Scale Calibration) | `01 06 00 10 00 02 09 CE` |
| **0x0003** | 满量程标定 (Full-Scale Calibration) | `01 06 00 10 00 03 C8 0E` |

---

## Status_Word 状态字（0x0002）

| 位(bit) | 含义 |
|---------|------|
| Bit 0 | 稳定 (1=稳定, 0=波动) |
| Bit 1 | 过载 (1=过载) |
| Bit 2 | 负重 (1=负重) |
| Bit 3 | 去皮状态 (1=已去皮) |

---

## 常用指令速查表

### 读取重量（FC03, 3个寄存器=6字节）
```
请求: 01 03 00 00 00 05 85 C9    (读0x0000起5个寄存器: 净重+状态+ADC)
响应: 01 03 0A [10B数据] CRC CRC
```

### 读最大量程（FC03, 2个寄存器）
```
请求: 01 03 00 22 00 02 64 01
响应: 01 03 04 [4B数据] CRC CRC   → int32 BE = 最大量程(g)
```

### 设置最大量程为 50kg（FC10, 写2个寄存器）
```
请求: 01 10 00 22 00 02 04 00 00 C3 50 20 A2
响应: 01 10 00 22 00 02 CRC CRC   (回显确认)
```

### 设置最大量程为 200kg（FC10, 写2个寄存器）
```
请求: 01 10 00 22 00 02 04 00 03 0D 40 85 0E
响应: 01 10 00 22 00 02 CRC CRC   (回显确认)
```

### 连接设备检测（FC03, 1个寄存器）
```
请求: 01 03 00 30 00 01 84 05
响应: 01 03 02 AB CD CRC CRC       (固定返回 0xABCD)
```

---

## 校准操作流程

### 标准两步校准流程:
1. **去皮**: 先确保秤空载 → 写 `System_Cmd = 1`
2. **放砝码**: 在秤上放置已知重量的砝码
3. **半量程标定**（如果砝码是半量程）→ 写 `System_Cmd = 2`
   或 **满量程标定**（如果是最大量程砝码）→ 写 `System_Cmd = 3`

### 注意事项:
- 校准前需先设置正确的 **Max_Capacity**（最大量程）
- 半量程/满量程选择取决于所加砝码的实际重量

---

## 注意事项
1. 所有多寄存器的组合字段（Net_Weight、ADC_Raw、Cal_a、Cal_K、Offset、Max_Capacity）均为 **大端序(Big-Endian)**
2. CuteCom 等串口工具需要以 sudo 运行或用户加入 dialout 组才能访问 `/dev/ttyAMA0`
3. RS-485 接口需注意 RTS 方向控制线配置
